(1620098111.027382) can0 1E0012D0#33EE863000000000
(1620098111.027487) can0 1E0052D0#00000E4D000015B9
(1620098111.027653) can0 1E0092D0#00000000000006C9
(1620098111.027805) can0 1E00D2D0#00001E0000000000
(1620098111.027903) can0 1E0112D0#00000D2900001E00
(1620098111.028082) can0 1E0152D0#00000F0000001E00
(1620098111.028233) can0 1E0192D0#0000556800000000
(1620098111.028384) can0 1E01D2D0#00004CBD00000000
(1620098111.028482) can0 1E0212D0#000056D300004DEF
(1620098111.028656) can0 1E0252D0#FFFFF39000000C27
(1620098111.028807) can0 1E0292D0#0000000000001D94
(1620098111.028958) can0 1E02D2D0#0000000000000000
(1620098111.029056) can0 1E0312D0#0000000000000000
(1620098111.029239) can0 1E0352D0#0000000000000000
(1620098111.029400) can0 1E0392D0#0000000000000000
(1620098111.029499) can0 1E03D2D0#0000000000000000
(1620098111.029686) can0 1E0412D0#0000000000000000
(1620098111.029837) can0 1E0452D0#0000000000000000
(1620098111.029988) can0 1E0492D0#0000000000000000
(1620098111.030086) can0 1E04D2D0#0000000000000000
(1620098111.030272) can0 1E0512D0#0000000000000000
(1620098111.030424) can0 1E0552D0#0000000000000000
(1620098111.030580) can0 1E0592D0#0000000000000000
(1620098111.030678) can0 1E05D2D0#0000000000000000
(1620098111.030861) can0 1E0612D0#0000000000000000
(1620098111.031011) can0 1FF412D0#1100EEFF0001DC1B
(1620098111.031110) can0 1FF452D0#00024D3800000000
(1620098111.037363) can0 1E0012D0#33EE863A00000000
(1620098111.037514) can0 1E0052D0#00000E4D000015B9
(1620098111.037612) can0 1E0092D0#00000000000006C9
(1620098111.037795) can0 1E00D2D0#00001E0000000000
(1620098111.037945) can0 1E0112D0#00000D2900001E00
(1620098111.038045) can0 1E0152D0#00000F0000001E00
(1620098111.038226) can0 1E0192D0#0000556900000000
(1620098111.038377) can0 1E01D2D0#00004CC400000000
(1620098111.038476) can0 1E0212D0#000056D300004DEE
(1620098111.038654) can0 1E0252D0#FFFFF39000000C27
(1620098111.038804) can0 1E0292D0#0000000000001D93
(1620098111.038955) can0 1E02D2D0#0000000000000000
(1620098111.039053) can0 1E0312D0#0000000000000000
(1620098111.039238) can0 1E0352D0#0000000000000000
(1620098111.039393) can0 1E0392D0#0000000000000000
(1620098111.039544) can0 1E03D2D0#0000000000000000
(1620098111.039643) can0 1E0412D0#0000000000000000
(1620098111.039829) can0 1E0452D0#0000000000000000
(1620098111.039980) can0 1E0492D0#0000000000000000
(1620098111.040131) can0 1E04D2D0#0000000000000000
(1620098111.040281) can0 1E0512D0#0000000000000000
(1620098111.040381) can0 1E0552D0#0000000000000000
(1620098111.040565) can0 1E0592D0#0000000000000000
(1620098111.040716) can0 1E05D2D0#0000000000000000
(1620098111.040867) can0 1E0612D0#0000000000000000
(1620098111.040965) can0 1FF412D0#1100EEFF0001DC1B
(1620098111.041145) can0 1FF452D0#00024D3800000000
(1620098111.047361) can0 1E0012D0#33EE864400000000
(1620098111.047512) can0 1E0052D0#00000E4E000015B9
(1620098111.047611) can0 1E0092D0#00000000000006CA
(1620098111.047794) can0 1E00D2D0#00001E0000000000
(1620098111.047944) can0 1E0112D0#00000D2900001E00
(1620098111.048043) can0 1E0152D0#00000F0000001E00
(1620098111.048226) can0 1E0192D0#0000556800000000
(1620098111.048379) can0 1E01D2D0#00004CC400000000
(1620098111.048477) can0 1E0212D0#000056D200004DED
(1620098111.048652) can0 1E0252D0#FFFFF39000000C28
(1620098111.048803) can0 1E0292D0#0000000000001D95
(1620098111.048954) can0 1E02D2D0#0000000000000000
(1620098111.049053) can0 1E0312D0#0000000000000000
(1620098111.049237) can0 1E0352D0#0000000000000000
(1620098111.049393) can0 1E0392D0#0000000000000000
(1620098111.049545) can0 1E03D2D0#0000000000000000
(1620098111.049643) can0 1E0412D0#0000000000000000
(1620098111.049828) can0 1E0452D0#0000000000000000
(1620098111.049979) can0 1E0492D0#0000000000000000
(1620098111.050130) can0 1E04D2D0#0000000000000000
(1620098111.050280) can0 1E0512D0#0000000000000000
(1620098111.050379) can0 1E0552D0#0000000000000000
(1620098111.050566) can0 1E0592D0#0000000000000000
(1620098111.050717) can0 1E05D2D0#0000000000000000
(1620098111.050868) can0 1E0612D0#0000000000000000
(1620098111.050966) can0 1FF412D0#1100EEFF0001DC1B
(1620098111.051145) can0 1FF452D0#00024D3800000000
(1620098111.057362) can0 1E0012D0#33EE864E00000000
(1620098111.057513) can0 1E0052D0#00000E4E000015B9
(1620098111.057611) can0 1E0092D0#00000000000006CA
(1620098111.057794) can0 1E00D2D0#00001E0000000000
(1620098111.057945) can0 1E0112D0#00000D2900001E00
(1620098111.058044) can0 1E0152D0#00000F0000001E00
(1620098111.058225) can0 1E0192D0#0000556900000000
(1620098111.058376) can0 1E01D2D0#00004CC300000000
(1620098111.058474) can0 1E0212D0#000056D200004DEC
(1620098111.058653) can0 1E0252D0#FFFFF39000000C28
(1620098111.058804) can0 1E0292D0#0000000000001D92
(1620098111.058954) can0 1E02D2D0#0000000000000000
(1620098111.059053) can0 1E0312D0#0000000000000000
(1620098111.059238) can0 1E0352D0#0000000000000000
(1620098111.059390) can0 1E0392D0#0000000000000000
(1620098111.059543) can0 1E03D2D0#0000000000000000
(1620098111.059694) can0 1E0412D0#0000000000000000
(1620098111.059793) can0 1E0452D0#0000000000000000
(1620098111.059976) can0 1E0492D0#0000000000000000
(1620098111.060127) can0 1E04D2D0#0000000000000000
(1620098111.060279) can0 1E0512D0#0000000000000000
(1620098111.060430) can0 1E0552D0#0000000000000000
(1620098111.060529) can0 1E0592D0#0000000000000000
(1620098111.060712) can0 1E05D2D0#0000000000000000
(1620098111.060862) can0 1E0612D0#0000000000000000
(1620098111.061013) can0 1FF412D0#1100EEFF0001DC1B
(1620098111.061111) can0 1FF452D0#00024D3800000000
(1620098111.067363) can0 1E0012D0#33EE865800000000
(1620098111.067514) can0 1E0052D0#00000E4E000015B9
(1620098111.067612) can0 1E0092D0#00000000000006CA
(1620098111.067794) can0 1E00D2D0#00001E0000000000
(1620098111.067946) can0 1E0112D0#00000D2900001E00
(1620098111.068045) can0 1E0152D0#00000F0000001E00
(1620098111.068227) can0 1E0192D0#0000556800000000
(1620098111.068378) can0 1E01D2D0#00004CC500000000
(1620098111.068476) can0 1E0212D0#000056D200004DED
(1620098111.068652) can0 1E0252D0#FFFFF39000000C29
(1620098111.068802) can0 1E0292D0#0000000000001D91
(1620098111.068953) can0 1E02D2D0#0000000000000000
(1620098111.069052) can0 1E0312D0#0000000000000000
(1620098111.069238) can0 1E0352D0#0000000000000000
(1620098111.069390) can0 1E0392D0#0000000000000000
(1620098111.069542) can0 1E03D2D0#0000000000000000
(1620098111.069693) can0 1E0412D0#0000000000000000
(1620098111.069791) can0 1E0452D0#0000000000000000
(1620098111.069976) can0 1E0492D0#0000000000000000
(1620098111.070126) can0 1E04D2D0#0000000000000000
(1620098111.070279) can0 1E0512D0#0000000000000000
(1620098111.070429) can0 1E0552D0#0000000000000000
(1620098111.070528) can0 1E0592D0#0000000000000000
(1620098111.070711) can0 1E05D2D0#0000000000000000
(1620098111.070862) can0 1E0612D0#0000000000000000
(1620098111.071013) can0 1FF412D0#1100EEFF0001DC1B
(1620098111.071111) can0 1FF452D0#00024D3800000000
(1620098111.077362) can0 1E0012D0#33EE866200000000
(1620098111.077513) can0 1E0052D0#00000E4D000015B9
(1620098111.077611) can0 1E0092D0#00000000000006CA
(1620098111.077794) can0 1E00D2D0#00001E0000000000
(1620098111.077944) can0 1E0112D0#00000D2900001E00
(1620098111.078043) can0 1E0152D0#00000F0000001E00
(1620098111.078225) can0 1E0192D0#0000556900000000
(1620098111.078376) can0 1E01D2D0#00004CC600000000
(1620098111.078474) can0 1E0212D0#000056D200004DED
(1620098111.078652) can0 1E0252D0#FFFFF39000000C29
(1620098111.078803) can0 1E0292D0#0000000000001D95
(1620098111.078953) can0 1E02D2D0#0000000000000000
(1620098111.079052) can0 1E0312D0#0000000000000000
(1620098111.079235) can0 1E0352D0#0000000000000000
(1620098111.079393) can0 1E0392D0#0000000000000000
(1620098111.079492) can0 1E03D2D0#0000000000000000
(1620098111.079679) can0 1E0412D0#0000000000000000
(1620098111.079829) can0 1E0452D0#0000000000000000
(1620098111.079979) can0 1E0492D0#0000000000000000
(1620098111.080130) can0 1E04D2D0#0000000000000000
(1620098111.080228) can0 1E0512D0#0000000000000000
(1620098111.080419) can0 1E0552D0#0000000000000000
(1620098111.080570) can0 1E0592D0#0000000000000000
(1620098111.080720) can0 1E05D2D0#0000000000000000
(1620098111.080818) can0 1E0612D0#0000000000000000
(1620098111.080999) can0 1FF412D0#1100EEFF0001DC1B
(1620098111.081151) can0 1FF452D0#00024D3800000000
(1620098111.087363) can0 1E0012D0#33EE866C00000000
(1620098111.087514) can0 1E0052D0#00000E4E000015BA
(1620098111.087612) can0 1E0092D0#00000000000006CA
(1620098111.087794) can0 1E00D2D0#00001E0000000000
(1620098111.087945) can0 1E0112D0#00000D2900001E00
(1620098111.088043) can0 1E0152D0#00000F0000001E00
(1620098111.088225) can0 1E0192D0#0000556700000000
(1620098111.088377) can0 1E01D2D0#00004CC500000000
(1620098111.088475) can0 1E0212D0#000056D200004DEA
(1620098111.088651) can0 1E0252D0#FFFFF39000000C29
(1620098111.088803) can0 1E0292D0#0000000000001D95
(1620098111.088954) can0 1E02D2D0#0000000000000000
(1620098111.089052) can0 1E0312D0#0000000000000000
(1620098111.089236) can0 1E0352D0#0000000000000000
(1620098111.089390) can0 1E0392D0#0000000000000000
(1620098111.089542) can0 1E03D2D0#0000000000000000
(1620098111.089693) can0 1E0412D0#0000000000000000
(1620098111.089791) can0 1E0452D0#0000000000000000
(1620098111.089974) can0 1E0492D0#0000000000000000
(1620098111.090127) can0 1E04D2D0#0000000000000000
(1620098111.090278) can0 1E0512D0#0000000000000000
(1620098111.090377) can0 1E0552D0#0000000000000000
(1620098111.090582) can0 1E0592D0#0000000000000000
(1620098111.090682) can0 1E05D2D0#0000000000000000
(1620098111.090857) can0 1E0612D0#0000000000000000
(1620098111.091008) can0 1FF412D0#1100EEFF0001DC1B
(1620098111.091107) can0 1FF452D0#00024D3800000000
(1620098111.097361) can0 1E0012D0#33EE867600000000
(1620098111.097512) can0 1E0052D0#00000E4E000015BA
(1620098111.097610) can0 1E0092D0#00000000000006CA
(1620098111.097794) can0 1E00D2D0#00001E0000000000
(1620098111.097945) can0 1E0112D0#00000D2900001E00
(1620098111.098043) can0 1E0152D0#00000F0000001E00
(1620098111.098224) can0 1E0192D0#0000556700000000
(1620098111.098375) can0 1E01D2D0#00004CC400000000
(1620098111.098473) can0 1E0212D0#000056D200004DEA
(1620098111.098650) can0 1E0252D0#FFFFF39000000C29
(1620098111.098801) can0 1E0292D0#0000000000001D95
