(1620100659.576117) can0 1E0012D0#3D750CD300052C34
(1620100659.576184) can0 1E0052D0#000002C000000F9A
(1620100659.576201) can0 1E0092D0#00000000000004E0
(1620100659.576216) can0 1E00D2D0#00000AAC00000000
(1620100659.576231) can0 1E0112D0#00000E0A00000AAC
(1620100659.576245) can0 1E0152D0#000019BF00000AAC
(1620100659.574597) can0 1E0192D0#000020C000000000
(1620100659.574693) can0 1E01D2D0#00005E9600000000
(1620100659.574879) can0 1E0212D0#0000568E0000584E
(1620100659.574974) can0 1E0252D0#FFFFF3BB00000DC0
(1620100659.575161) can0 1E0292D0#0000000000002A06
(1620100659.575256) can0 1E02D2D0#0000000000000000
(1620100659.575439) can0 1E0312D0#0000000000000000
(1620100659.575584) can0 1E0352D0#0000000000000000
(1620100659.575731) can0 1E0392D0#0000000000000000
(1620100659.575877) can0 1E03D2D0#0000000000000000
(1620100659.576022) can0 1E0412D0#0000000000000000
(1620100659.576168) can0 1E0452D0#0000000000000000
(1620100659.576317) can0 1E0492D0#0000000000000000
(1620100659.576464) can0 1E04D2D0#0000000000000000
(1620100659.576611) can0 1E0512D0#0000000000000000
(1620100659.576761) can0 1E0552D0#0000000000000000
(1620100659.576909) can0 1E0592D0#0000000000000000
(1620100659.577056) can0 1E05D2D0#0000000000000000
(1620100659.577204) can0 1E0612D0#0000000000000000
(1620100659.577302) can0 1FF412D0#1100EEFF0001DC1E
(1620100659.577492) can0 1FF452D0#00024ECC00000000
(1620100659.583706) can0 1E0012D0#3D750CDD00052B82
(1620100659.583824) can0 1E0052D0#000002C200000FA2
(1620100659.583991) can0 1E0092D0#00000000000004E2
(1620100659.584138) can0 1E00D2D0#00000AC600000000
(1620100659.584237) can0 1E0112D0#00000E0A00000AC6
(1620100659.584417) can0 1E0152D0#000019AC00000AC6
(1620100659.584564) can0 1E0192D0#000020D100000000
(1620100659.584711) can0 1E01D2D0#00005E9200000000
(1620100659.584809) can0 1E0212D0#0000568E00005858
(1620100659.584990) can0 1E0252D0#FFFFF3B900000DC0
(1620100659.585137) can0 1E0292D0#0000000000002A04
(1620100659.585284) can0 1E02D2D0#0000000000000000
(1620100659.585431) can0 1E0312D0#0000000000000000
(1620100659.585578) can0 1E0352D0#0000000000000000
(1620100659.585726) can0 1E0392D0#0000000000000000
(1620100659.585873) can0 1E03D2D0#0000000000000000
(1620100659.586019) can0 1E0412D0#0000000000000000
(1620100659.586166) can0 1E0452D0#0000000000000000
(1620100659.586314) can0 1E0492D0#0000000000000000
(1620100659.586461) can0 1E04D2D0#0000000000000000
(1620100659.586608) can0 1E0512D0#0000000000000000
(1620100659.586755) can0 1E0552D0#0000000000000000
(1620100659.586901) can0 1E0592D0#0000000000000000
(1620100659.587048) can0 1E05D2D0#0000000000000000
(1620100659.587194) can0 1E0612D0#0000000000000000
(1620100659.587341) can0 1FF412D0#1100EEFF0001DC1F
(1620100659.587487) can0 1FF452D0#00024ECD00000000
(1620100659.593701) can0 1E0012D0#3D750CE700052C9B
(1620100659.593882) can0 1E0052D0#000002BA00000F6D
(1620100659.593981) can0 1E0092D0#00000000000004D2
(1620100659.594128) can0 1E00D2D0#00000AB900000000
(1620100659.594274) can0 1E0112D0#00000E0A00000AB9
(1620100659.594421) can0 1E0152D0#00001A0400000AB9
(1620100659.594568) can0 1E0192D0#0000207F00000000
(1620100659.594716) can0 1E01D2D0#00005E9900000000
(1620100659.594814) can0 1E0212D0#0000568F00005859
(1620100659.594992) can0 1E0252D0#FFFFF3B600000DC1
(1620100659.595139) can0 1E0292D0#0000000000002A04
(1620100659.595285) can0 1E02D2D0#0000000000000000
(1620100659.595431) can0 1E0312D0#0000000000000000
(1620100659.595578) can0 1E0352D0#0000000000000000
(1620100659.595724) can0 1E0392D0#0000000000000000
(1620100659.595871) can0 1E03D2D0#0000000000000000
(1620100659.596017) can0 1E0412D0#0000000000000000
(1620100659.596164) can0 1E0452D0#0000000000000000
(1620100659.596312) can0 1E0492D0#0000000000000000
(1620100659.596458) can0 1E04D2D0#0000000000000000
(1620100659.596605) can0 1E0512D0#0000000000000000
(1620100659.596751) can0 1E0552D0#0000000000000000
(1620100659.596897) can0 1E0592D0#0000000000000000
(1620100659.597044) can0 1E05D2D0#0000000000000000
(1620100659.597191) can0 1E0612D0#0000000000000000
(1620100659.597337) can0 1FF412D0#1100EEFF0001DC1F
(1620100659.597484) can0 1FF452D0#00024ECD00000000
(1620100659.603702) can0 1E0012D0#3D750CF100052C9B
(1620100659.603861) can0 1E0052D0#000002BB00000F76
(1620100659.603959) can0 1E0092D0#00000000000004D5
(1620100659.604131) can0 1E00D2D0#00000ABC00000000
(1620100659.604278) can0 1E0112D0#00000E0A00000ABC
(1620100659.604424) can0 1E0152D0#000019F600000ABC
(1620100659.604571) can0 1E0192D0#0000208C00000000
(1620100659.604717) can0 1E01D2D0#00005E9A00000000
(1620100659.604815) can0 1E0212D0#0000568F00005857
(1620100659.604993) can0 1E0252D0#FFFFF3B500000DC1
(1620100659.605139) can0 1E0292D0#0000000000002A02
(1620100659.605285) can0 1E02D2D0#0000000000000000
(1620100659.605432) can0 1E0312D0#0000000000000000
(1620100659.605579) can0 1E0352D0#0000000000000000
(1620100659.605726) can0 1E0392D0#0000000000000000
(1620100659.605872) can0 1E03D2D0#0000000000000000
(1620100659.606018) can0 1E0412D0#0000000000000000
(1620100659.606164) can0 1E0452D0#0000000000000000
(1620100659.606312) can0 1E0492D0#0000000000000000
(1620100659.606459) can0 1E04D2D0#0000000000000000
(1620100659.606608) can0 1E0512D0#0000000000000000
(1620100659.606754) can0 1E0552D0#0000000000000000
(1620100659.606900) can0 1E0592D0#0000000000000000
(1620100659.607047) can0 1E05D2D0#0000000000000000
(1620100659.607193) can0 1E0612D0#0000000000000000
(1620100659.607339) can0 1FF412D0#1100EEFF0001DC1F
(1620100659.607485) can0 1FF452D0#00024ECD00000000
(1620100659.613703) can0 1E0012D0#3D750CFB00052BB1
(1620100659.613871) can0 1E0052D0#000002BB00000F6D
(1620100659.613970) can0 1E0092D0#00000000000004D2
(1620100659.614134) can0 1E00D2D0#00000ABB00000000
(1620100659.614281) can0 1E0112D0#00000E0A00000ABB
(1620100659.614428) can0 1E0152D0#000019FB00000ABB
(1620100659.614574) can0 1E0192D0#0000208600000000
(1620100659.614672) can0 1E01D2D0#00005E9B00000000
(1620100659.614850) can0 1E0212D0#0000568F00005858
(1620100659.614999) can0 1E0252D0#FFFFF3B400000DBB
(1620100659.615145) can0 1E0292D0#0000000000002A01
(1620100659.615292) can0 1E02D2D0#0000000000000000
(1620100659.615438) can0 1E0312D0#0000000000000000
(1620100659.615586) can0 1E0352D0#0000000000000000
(1620100659.615733) can0 1E0392D0#0000000000000000
(1620100659.615879) can0 1E03D2D0#0000000000000000
(1620100659.616026) can0 1E0412D0#0000000000000000
(1620100659.616172) can0 1E0452D0#0000000000000000
(1620100659.616320) can0 1E0492D0#0000000000000000
(1620100659.616466) can0 1E04D2D0#0000000000000000
(1620100659.616613) can0 1E0512D0#0000000000000000
(1620100659.616759) can0 1E0552D0#0000000000000000
(1620100659.616905) can0 1E0592D0#0000000000000000
(1620100659.617052) can0 1E05D2D0#0000000000000000
(1620100659.617198) can0 1E0612D0#0000000000000000
(1620100659.617345) can0 1FF412D0#1100EEFF0001DC1F
(1620100659.617492) can0 1FF452D0#00024ECD00000000
(1620100659.623702) can0 1E0012D0#3D750D0500052F44
(1620100659.623893) can0 1E0052D0#000002BE00000F8E
(1620100659.623991) can0 1E0092D0#00000000000004DC
(1620100659.624138) can0 1E00D2D0#00000AB900000000
(1620100659.624285) can0 1E0112D0#00000E0A00000AB9
(1620100659.624382) can0 1E0152D0#000019EA00000AB9
(1620100659.624566) can0 1E0192D0#0000209C00000000
(1620100659.624714) can0 1E01D2D0#00005E9200000000
(1620100659.624812) can0 1E0212D0#0000568F00005865
(1620100659.625002) can0 1E0252D0#FFFFF3B600000DBB
(1620100659.625100) can0 1E0292D0#0000000000002A02
(1620100659.625312) can0 1E02D2D0#0000000000000000
(1620100659.625411) can0 1E0312D0#0000000000000000
(1620100659.627928) can0 1E0352D0#0000000000000000
(1620100659.627987) can0 1E0392D0#0000000000000000
(1620100659.628145) can0 1FF452D0#00024ECD00000000
(1620100659.633693) can0 1E0012D0#3D750D0F0005324B
(1620100659.633827) can0 1E0052D0#000002C000000FA4
(1620100659.633983) can0 1E0092D0#00000000000004E3
(1620100659.634119) can0 1E00D2D0#00000ABC00000000
(1620100659.634268) can0 1E0112D0#00000E0A00000ABC
(1620100659.634414) can0 1E0152D0#000019E500000ABC
(1620100659.634550) can0 1E0192D0#000020A400000000
(1620100659.634698) can0 1E01D2D0#00005E9700000000
(1620100659.634845) can0 1E0212D0#0000569000005865
(1620100659.634978) can0 1E0252D0#FFFFF3B900000DB9
(1620100659.635127) can0 1E0292D0#00000000000029FE
(1620100659.635275) can0 1E02D2D0#0000000000000000
(1620100659.635421) can0 1E0312D0#0000000000000000
(1620100659.635567) can0 1E0352D0#0000000000000000
(1620100659.635715) can0 1E0392D0#0000000000000000
(1620100659.635863) can0 1E03D2D0#0000000000000000
(1620100659.636011) can0 1E0412D0#0000000000000000
(1620100659.636158) can0 1E0452D0#0000000000000000
(1620100659.636305) can0 1E0492D0#0000000000000000
(1620100659.636452) can0 1E04D2D0#0000000000000000
(1620100659.636600) can0 1E0512D0#0000000000000000
(1620100659.636747) can0 1E0552D0#0000000000000000
(1620100659.636894) can0 1E0592D0#0000000000000000
(1620100659.637041) can0 1E05D2D0#0000000000000000
(1620100659.637187) can0 1E0612D0#0000000000000000
(1620100659.637333) can0 1FF412D0#1100EEFF0001DC1F
(1620100659.637469) can0 1FF452D0#00024ECD00000000
(1620100659.643691) can0 1E0012D0#3D750D1900053628
(1620100659.643836) can0 1E0052D0#000002BE00000FA4
(1620100659.643985) can0 1E0092D0#00000000000004E3
(1620100659.644119) can0 1E00D2D0#00000ABC00000000
(1620100659.644267) can0 1E0112D0#00000E0A00000ABC
(1620100659.644414) can0 1E0152D0#00001A0A00000ABC
(1620100659.644549) can0 1E0192D0#0000208700000000
(1620100659.644698) can0 1E01D2D0#00005E9400000000
(1620100659.644834) can0 1E0212D0#0000569000005862
(1620100659.644980) can0 1E0252D0#FFFFF3BA00000DB9
(1620100659.645127) can0 1E0292D0#00000000000029F7
(1620100659.645274) can0 1E02D2D0#0000000000000000
(1620100659.645421) can0 1E0312D0#0000000000000000
(1620100659.645567) can0 1E0352D0#0000000000000000
(1620100659.645714) can0 1E0392D0#0000000000000000
(1620100659.645861) can0 1E03D2D0#0000000000000000
(1620100659.646009) can0 1E0412D0#0000000000000000
(1620100659.646157) can0 1E0452D0#0000000000000000
(1620100659.646304) can0 1E0492D0#0000000000000000
(1620100659.646451) can0 1E04D2D0#0000000000000000
(1620100659.646599) can0 1E0512D0#0000000000000000
(1620100659.646745) can0 1E0552D0#0000000000000000
